Time Stamp,ID,Extended,Dir,Bus,LEN,D1,D2,D3,D4,D5,D6,D7,D8
2028418286,00000100,false,Rx,1,8,00,00,00,00,B3,01,F0,00,
2028428195,00000101,false,Rx,1,8,00,00,00,00,00,00,00,00,
2028438199,00000102,false,Rx,1,8,02,9A,01,00,00,C8,03,00,
2028448633,00000200,false,Rx,1,8,FF,00,00,00,FA,00,FF,FF,
2028491329,00000108,false,Rx,1,8,01,F4,01,0F,B3,01,00,00,
2028491578,00000109,false,Rx,1,8,02,00,00,00,01,20,FF,FF,
2028491830,00000208,false,Rx,1,8,FF,F4,01,F0,00,00,FA,00,
2028492058,00000209,false,Rx,1,8,02,00,00,00,00,00,00,00,
2028518517,00000100,false,Rx,1,8,00,00,00,00,B3,01,64,00,
2028528475,00000101,false,Rx,1,8,00,00,00,00,00,F0,00,00,
2028538481,00000102,false,Rx,1,8,02,9A,01,00,00,C8,01,00,
2028548498,00000200,false,Rx,1,8,FF,00,00,00,FA,00,FF,FF,
2028591311,00000108,false,Rx,1,8,01,F4,01,0F,B3,01,00,00,
2028591566,00000109,false,Rx,1,8,02,00,00,00,01,20,FF,FF,
2028591837,00000208,false,Rx,1,8,FF,F4,01,F0,00,00,FA,00,
2028592050,00000209,false,Rx,1,8,02,00,00,00,00,00,00,00,
2028618572,00000100,false,Rx,1,8,00,00,00,00,B3,01,64,00,
2028628569,00000101,false,Rx,1,8,00,00,00,00,00,F0,00,00,
2028638596,00000102,false,Rx,1,8,02,9A,01,00,00,C8,01,00,
2028648619,00000200,false,Rx,1,8,FF,00,00,00,FA,00,FF,FF,
2028691178,00000108,false,Rx,1,8,01,F4,01,0F,B3,01,00,00,
2028691412,00000109,false,Rx,1,8,02,00,00,00,01,20,FF,FF,
2028691663,00000208,false,Rx,1,8,FF,F4,01,F0,00,00,FA,00,
2028691917,00000209,false,Rx,1,8,02,00,00,00,00,00,00,00,
2028718711,00000100,false,Rx,1,8,00,00,00,00,B3,01,64,00,
2028728678,00000101,false,Rx,1,8,00,00,00,00,00,F0,00,00,
2028738706,00000102,false,Rx,1,8,02,9A,01,00,00,C8,01,00,
2028748707,00000200,false,Rx,1,8,FF,00,00,00,FA,00,FF,FF,
2028791303,00000108,false,Rx,1,8,01,F4,01,0F,B3,01,00,00,
2028791543,00000109,false,Rx,1,8,02,00,00,00,01,20,FF,FF,
2028791867,00000208,false,Rx,1,8,FF,F4,01,F0,00,00,FA,00,
2028792054,00000209,false,Rx,1,8,02,00,00,00,00,00,00,00,
2028818864,00000100,false,Rx,1,8,00,00,00,00,B3,01,64,00,
2028828781,00000101,false,Rx,1,8,00,00,00,00,00,F0,00,00,
2028838866,00000102,false,Rx,1,8,02,9A,01,00,00,C8,01,00,
2028848939,00000200,false,Rx,1,8,FF,00,00,00,FA,00,FF,FF,
2028891182,00000108,false,Rx,1,8,01,F4,01,0F,B3,01,00,00,
2028891436,00000109,false,Rx,1,8,02,00,00,00,01,20,FF,FF,
2028891687,00000208,false,Rx,1,8,FF,F4,01,F0,00,00,FA,00,
2028891933,00000209,false,Rx,1,8,02,00,00,00,00,00,00,00,
2028918936,00000100,false,Rx,1,8,00,00,00,00,B3,01,64,00,
2028928932,00000101,false,Rx,1,8,00,00,00,00,00,F0,00,00,
2028938936,00000102,false,Rx,1,8,02,9A,01,00,00,C8,01,00,
2028948951,00000200,false,Rx,1,8,FF,00,00,00,FA,00,FF,FF,
2028991173,00000108,false,Rx,1,8,01,F4,01,0F,B3,01,00,00,
2028991401,00000109,false,Rx,1,8,02,00,00,00,01,20,FF,FF,
2028991659,00000208,false,Rx,1,8,FF,F4,01,F0,00,00,FA,00,
2028991947,00000209,false,Rx,1,8,02,00,00,00,00,00,00,00,
2029018986,00000100,false,Rx,1,8,00,00,00,00,B3,01,64,00,
2029028975,00000101,false,Rx,1,8,00,00,00,00,00,F0,00,00,
2029039015,00000102,false,Rx,1,8,02,9A,01,00,00,C8,01,00,
2029049013,00000200,false,Rx,1,8,FF,00,00,00,FA,00,FF,FF,
2029091179,00000108,false,Rx,1,8,01,F4,01,0F,B3,01,00,00,
2029091421,00000109,false,Rx,1,8,02,00,00,00,01,20,FF,FF,
2029091661,00000208,false,Rx,1,8,FF,F4,01,F0,00,00,FA,00,
2029091954,00000209,false,Rx,1,8,02,00,00,00,00,00,00,00,
2029119133,00000100,false,Rx,1,8,00,00,00,00,B3,01,64,00,
2029129093,00000101,false,Rx,1,8,00,00,00,00,00,F0,00,00,
2029139100,00000102,false,Rx,1,8,02,9A,01,00,00,C8,01,00,
2029149107,00000200,false,Rx,1,8,FF,00,00,00,FA,00,43,B3,
2029191162,00000108,false,Rx,1,8,01,F4,01,0F,B3,01,00,00,
2029191392,00000109,false,Rx,1,8,02,00,00,00,01,20,FF,FF,
2029191633,00000208,false,Rx,1,8,FF,F4,01,F0,00,00,FA,00,
2029191914,00000209,false,Rx,1,8,02,00,00,00,00,00,00,00,
2029219193,00000100,false,Rx,1,8,00,00,00,00,B3,01,64,00,
2029229197,00000101,false,Rx,1,8,00,00,00,00,00,F0,00,00,
2029239235,00000102,false,Rx,1,8,02,9A,01,00,00,C8,01,00,
2029249207,00000200,false,Rx,1,8,FF,00,00,00,FA,00,43,B3,
2029291101,00000108,false,Rx,1,8,01,F4,01,0F,B3,01,00,00,
2029291370,00000109,false,Rx,1,8,02,00,00,00,01,20,FF,FF,
2029291598,00000208,false,Rx,1,8,FF,F4,01,F0,00,00,FA,00,
2029291924,00000209,false,Rx,1,8,02,00,00,00,00,00,00,00,
2029319321,00000100,false,Rx,1,8,00,00,00,00,B3,01,64,00,
2029329287,00000101,false,Rx,1,8,00,00,00,00,00,F0,00,00,
2029339301,00000102,false,Rx,1,8,02,9A,01,00,00,C8,01,00,
2029349442,00000200,false,Rx,1,8,FF,00,00,00,FA,00,43,B3,
2029391246,00000108,false,Rx,1,8,01,F4,01,0F,B3,01,00,00,
2029391486,00000109,false,Rx,1,8,02,00,00,00,01,20,FF,FF,
2029391740,00000208,false,Rx,1,8,FF,F4,01,F0,00,00,FA,00,
2029392004,00000209,false,Rx,1,8,02,00,00,00,00,00,00,00,
2029419391,00000100,false,Rx,1,8,00,00,00,00,B3,01,64,00,
2029429344,00000101,false,Rx,1,8,00,00,00,00,00,F0,00,00,
2029439412,00000102,false,Rx,1,8,02,9A,01,00,00,C8,01,00,
2029449378,00000200,false,Rx,1,8,FF,00,00,00,FA,00,43,B3,
2029491152,00000108,false,Rx,1,8,01,F4,01,0F,B3,01,00,00,
2029491379,00000109,false,Rx,1,8,02,00,00,00,01,20,00,00,
2029491625,00000208,false,Rx,1,8,FF,F4,01,F0,00,00,FA,00,
2029491951,00000209,false,Rx,1,8,02,00,00,00,00,00,00,00,
2029519490,00000100,false,Rx,1,8,00,00,00,00,B3,01,64,00,
2029529445,00000101,false,Rx,1,8,00,00,00,00,00,F0,00,00,
2029539452,00000102,false,Rx,1,8,02,9A,01,00,00,C8,01,00,
2029549471,00000200,false,Rx,1,8,FF,00,00,00,FA,00,43,B3,
2029591064,00000108,false,Rx,1,8,01,F4,01,0F,B3,01,00,00,
2029591305,00000109,false,Rx,1,8,02,00,00,00,01,20,00,00,
2029591559,00000208,false,Rx,1,8,FF,F4,01,F0,00,00,FA,00,
2029591809,00000209,false,Rx,1,8,02,00,00,00,00,00,00,00,
2029619548,00000100,false,Rx,1,8,00,00,00,00,B3,01,64,00,
2029629542,00000101,false,Rx,1,8,00,00,00,00,00,F0,00,00,
2029639590,00000102,false,Rx,1,8,02,9A,01,00,00,C8,01,00,
2029649571,00000200,false,Rx,1,8,FF,00,00,00,FA,00,43,B3,
2029691115,00000108,false,Rx,1,8,01,F4,01,0F,B3,01,00,00,
2029691346,00000109,false,Rx,1,8,02,00,00,00,01,20,00,00,
2029691602,00000208,false,Rx,1,8,FF,F4,01,F0,00,00,FA,00,
2029691848,00000209,false,Rx,1,8,02,00,00,00,00,00,00,00,
2029719703,00000100,false,Rx,1,8,00,00,00,00,B3,01,64,00,
2029729651,00000101,false,Rx,1,8,00,00,00,00,00,F0,00,00,
2029739654,00000102,false,Rx,1,8,02,9A,01,00,00,C8,01,00,
2029749681,00000200,false,Rx,1,8,FF,00,00,00,FA,00,43,B3,
2029791052,00000108,false,Rx,1,8,01,F4,01,0F,B3,01,00,00,
2029791280,00000109,false,Rx,1,8,02,00,00,00,01,20,00,00,
2029791539,00000208,false,Rx,1,8,FF,F4,01,F0,00,00,FA,00,
2029791785,00000209,false,Rx,1,8,02,00,00,00,00,00,00,00,
2029819754,00000100,false,Rx,1,8,00,00,00,00,B3,01,64,00,
2029829748,00000101,false,Rx,1,8,00,00,00,00,00,F0,00,00,
2029839806,00000102,false,Rx,1,8,02,9A,01,00,00,C8,01,00,
2029849907,00000200,false,Rx,1,8,FF,00,00,00,FA,00,43,B3,
2029891038,00000108,false,Rx,1,8,01,F4,01,0F,B3,01,00,00,
2029891278,00000109,false,Rx,1,8,02,00,00,00,01,20,00,00,
2029891520,00000208,false,Rx,1,8,FF,F4,01,F0,00,00,FA,00,
2029891765,00000209,false,Rx,1,8,02,00,00,00,00,00,00,00,
2029919904,00000100,false,Rx,1,8,00,00,00,00,B3,01,64,00,
2029929850,00000101,false,Rx,1,8,00,00,00,00,00,F0,00,00,
2029939852,00000102,false,Rx,1,8,02,9A,01,00,00,C8,01,00,
2029949880,00000200,false,Rx,1,8,FF,00,00,00,FA,00,43,B3,
2029991022,00000108,false,Rx,1,8,01,F4,01,0F,B3,01,00,00,
2029991263,00000109,false,Rx,1,8,02,00,00,00,01,20,00,00,
2029991512,00000208,false,Rx,1,8,FF,F4,01,F0,00,00,FA,00,
2029991756,00000209,false,Rx,1,8,02,00,00,00,00,00,00,00,
2030020020,00000100,false,Rx,1,8,00,00,00,00,B3,01,64,00,
2030030016,00000101,false,Rx,1,8,00,00,00,00,00,F0,00,00,
2030040011,00000102,false,Rx,1,8,02,9A,01,00,00,C8,01,00,
2030050021,00000200,false,Rx,1,8,FF,00,00,00,FA,00,43,B3,
2030091121,00000108,false,Rx,1,8,01,F4,01,0F,B3,01,00,00,
2030091364,00000109,false,Rx,1,8,02,00,00,00,01,20,00,00,
2030091613,00000208,false,Rx,1,8,FF,F4,01,F0,00,00,FA,00,
2030091849,00000209,false,Rx,1,8,02,00,00,00,00,00,00,00,
2030120091,00000100,false,Rx,1,8,00,00,00,00,B3,01,64,00,
2030130042,00000101,false,Rx,1,8,00,00,00,00,00,F0,00,00,
2030140060,00000102,false,Rx,1,8,02,9A,01,00,00,C8,01,00,
2030150069,00000200,false,Rx,1,8,FF,00,00,00,FA,00,43,B3,
2030191162,00000108,false,Rx,1,8,01,F4,01,0F,B3,01,00,00,
2030191402,00000109,false,Rx,1,8,02,00,00,00,01,20,00,00,
2030191655,00000208,false,Rx,1,8,FF,F4,01,F0,00,00,FA,00,
2030191891,00000209,false,Rx,1,8,02,00,00,00,00,00,00,00,
2030220165,00000100,false,Rx,1,8,00,00,00,00,B3,01,64,00,
2030230145,00000101,false,Rx,1,8,00,00,00,00,00,F0,00,00,
2030240196,00000102,false,Rx,1,8,02,9A,01,00,00,C8,01,00,
2030250175,00000200,false,Rx,1,8,FF,00,00,00,FA,00,43,B3,
2030291051,00000108,false,Rx,1,8,01,F4,01,0F,B3,01,00,00,
2030291262,00000109,false,Rx,1,8,02,00,00,00,01,20,00,00,
2030291497,00000208,false,Rx,1,8,FF,F4,01,F0,00,00,FA,00,
2030291736,00000209,false,Rx,1,8,02,00,00,00,00,00,00,00,
2030320297,00000100,false,Rx,1,8,00,00,00,00,B3,01,64,00,
2030330246,00000101,false,Rx,1,8,00,00,00,00,00,F0,00,00,
2030340245,00000102,false,Rx,1,8,02,9A,01,00,00,C8,01,00,
2030350423,00000200,false,Rx,1,8,FF,00,00,00,FA,00,43,B3,
2030391069,00000108,false,Rx,1,8,01,F4,01,0F,B3,01,00,00,
2030391274,00000109,false,Rx,1,8,02,00,00,00,01,20,00,00,
2030391509,00000208,false,Rx,1,8,FF,F4,01,F0,00,00,FA,00,
2030391761,00000209,false,Rx,1,8,02,00,00,00,00,00,00,00,
2030420360,00000100,false,Rx,1,8,00,00,00,00,B3,01,64,00,
2030430354,00000101,false,Rx,1,8,00,00,00,00,00,F0,00,00,
2030440389,00000102,false,Rx,1,8,02,9A,01,00,00,C8,01,00,
2030450413,00000200,false,Rx,1,8,FF,00,00,00,FA,00,43,B3,
2030491067,00000108,false,Rx,1,8,01,F4,01,0F,B3,01,00,00,
2030491286,00000109,false,Rx,1,8,02,00,00,00,01,20,00,00,
2030491535,00000208,false,Rx,1,8,FF,F4,01,F0,00,00,FA,00,
2030491772,00000209,false,Rx,1,8,02,00,00,00,00,00,00,00,
2030520675,00000100,false,Rx,1,8,00,00,00,00,B3,01,64,00,
2030530578,00000101,false,Rx,1,8,00,00,00,00,00,E0,00,00,
2030540567,00000102,false,Rx,1,8,02,9A,01,00,00,C8,56,00,
2030550578,00000200,false,Rx,1,8,FF,00,00,00,FA,00,43,B3,
2030591091,00000108,false,Rx,1,8,01,F4,01,0F,B3,01,00,00,
2030591308,00000109,false,Rx,1,8,02,00,00,00,01,20,00,00,
2030591552,00000208,false,Rx,1,8,FF,F4,01,F0,00,00,FA,00,
2030591801,00000209,false,Rx,1,8,02,00,00,00,00,00,00,00,
2030620734,00000100,false,Rx,1,8,00,00,00,00,B3,01,64,00,
2030630696,00000101,false,Rx,1,8,00,00,00,00,00,E0,00,00,
2030640734,00000102,false,Rx,1,8,02,9A,01,00,00,C8,56,00,
2030650731,00000200,false,Rx,1,8,FF,00,00,00,FA,00,43,B3,
2030690952,00000108,false,Rx,1,8,01,F4,01,0F,B3,01,00,00,
2030691188,00000109,false,Rx,1,8,02,00,00,00,01,20,00,00,
2030691442,00000208,false,Rx,1,8,FF,F4,01,F0,00,00,FA,00,
2030691691,00000209,false,Rx,1,8,02,00,00,00,00,00,00,00,
2030720865,00000100,false,Rx,1,8,00,00,00,00,B3,01,64,00,
2030730795,00000101,false,Rx,1,8,00,00,00,00,00,E0,00,00,
2030740815,00000102,false,Rx,1,8,02,9A,01,00,00,C8,56,00,
2030750827,00000200,false,Rx,1,8,FF,00,00,00,FA,00,43,B3,
2030791011,00000108,false,Rx,1,8,01,F4,01,0F,B3,01,00,00,
2030791245,00000109,false,Rx,1,8,02,00,00,00,01,20,00,00,
2030791492,00000208,false,Rx,1,8,FF,F4,01,F0,00,00,FA,00,
2030791743,00000209,false,Rx,1,8,02,00,00,00,00,00,00,00,
2030820932,00000100,false,Rx,1,8,00,00,00,00,B3,01,64,00,
2030830907,00000101,false,Rx,1,8,00,00,00,00,00,E0,00,00,
2030840956,00000102,false,Rx,1,8,02,9A,01,00,00,C8,56,00,
2030851114,00000200,false,Rx,1,8,FF,00,00,00,FA,00,43,B3,
2030890945,00000108,false,Rx,1,8,01,F4,01,0F,B3,01,00,00,
2030891185,00000109,false,Rx,1,8,02,00,00,00,01,20,00,00,
2030891436,00000208,false,Rx,1,8,FF,F4,01,F0,00,00,FA,00,
2030891683,00000209,false,Rx,1,8,02,00,00,00,00,00,00,00,
2030921117,00000100,false,Rx,1,8,00,00,00,00,B3,01,64,00,
2030931002,00000101,false,Rx,1,8,00,00,00,00,00,E0,00,00,
2030940998,00000102,false,Rx,1,8,02,9A,01,00,00,C8,56,00,
2030951020,00000200,false,Rx,1,8,FF,00,00,00,FA,00,43,B3,
2030990935,00000108,false,Rx,1,8,01,F4,01,0F,B3,01,00,00,
2030991170,00000109,false,Rx,1,8,02,00,00,00,01,20,00,00,
2030991421,00000208,false,Rx,1,8,FF,F4,01,F0,00,00,FA,00,
2030991671,00000209,false,Rx,1,8,02,00,00,00,00,00,00,00,
2031021135,00000100,false,Rx,1,8,00,00,00,00,B3,01,64,00,
2031031131,00000101,false,Rx,1,8,00,00,00,00,00,E0,00,00,
2031041131,00000102,false,Rx,1,8,02,9A,01,00,00,C8,56,00,
2031051137,00000200,false,Rx,1,8,FF,00,00,00,FA,00,43,B3,
2031090920,00000108,false,Rx,1,8,01,F4,01,0F,B3,01,00,00,
2031091170,00000109,false,Rx,1,8,02,00,00,00,01,20,00,00,
2031091424,00000208,false,Rx,1,8,FF,F4,01,F0,00,00,FA,00,
2031091669,00000209,false,Rx,1,8,02,00,00,00,00,00,00,00,
2031121256,00000100,false,Rx,1,8,00,00,00,00,B3,01,64,00,
2031131171,00000101,false,Rx,1,8,00,00,00,00,00,E0,00,00,
2031141181,00000102,false,Rx,1,8,02,9A,01,00,00,C8,56,00,
2031151209,00000200,false,Rx,1,8,FF,00,00,00,FA,00,43,B3,
2031190908,00000108,false,Rx,1,8,01,F4,01,0F,B3,01,00,00,
2031191148,00000109,false,Rx,1,8,02,00,00,00,01,20,00,00,
2031191406,00000208,false,Rx,1,8,FF,F4,01,F0,00,00,FA,00,
2031191649,00000209,false,Rx,1,8,02,00,00,00,00,00,00,00,
2031221306,00000100,false,Rx,1,8,00,00,00,00,B3,01,64,00,
2031231283,00000101,false,Rx,1,8,00,00,00,00,00,E0,00,00,
2031241315,00000102,false,Rx,1,8,02,9A,01,00,00,C8,56,00,
2031251299,00000200,false,Rx,1,8,FF,00,00,00,FA,00,43,B3,
2031290974,00000108,false,Rx,1,8,01,F4,01,0F,B3,01,00,00,
2031291210,00000109,false,Rx,1,8,02,00,00,00,01,20,00,00,
2031291455,00000208,false,Rx,1,8,FF,F4,01,F0,00,00,FA,00,
2031291706,00000209,false,Rx,1,8,02,00,00,00,00,00,00,00,
2031321449,00000100,false,Rx,1,8,00,00,00,00,B3,01,64,00,
2031331370,00000101,false,Rx,1,8,00,FF,3C,00,00,E0,00,00,
2031341390,00000102,false,Rx,1,8,02,9A,01,00,00,C8,56,00,
2031351543,00000200,false,Rx,1,8,FF,00,00,00,FA,00,43,B3,
2031390930,00000108,false,Rx,1,8,01,F4,01,0F,B3,01,00,00,
2031391172,00000109,false,Rx,1,8,02,00,00,00,01,20,00,00,
2031391394,00000208,false,Rx,1,8,FF,F4,01,F0,00,00,FA,00,
2031391677,00000209,false,Rx,1,8,02,00,00,00,00,00,00,00,
2031421525,00000100,false,Rx,1,8,00,00,00,00,B3,01,64,00,
2031431475,00000101,false,Rx,1,8,00,FF,3C,00,00,E0,00,00,
2031441531,00000102,false,Rx,1,8,02,9A,01,00,00,C8,56,00,
2031451503,00000200,false,Rx,1,8,FF,00,00,00,FA,00,43,B3,
2031490890,00000108,false,Rx,1,8,01,F4,01,0F,B3,01,00,00,
2031491181,00000109,false,Rx,1,8,02,00,00,00,01,20,00,00,
2031491371,00000208,false,Rx,1,8,FF,F4,01,F0,00,00,FA,00,
2031491616,00000209,false,Rx,1,8,02,00,00,00,00,00,00,00,
2031521650,00000100,false,Rx,1,8,00,00,00,00,B3,01,64,00,
2031531569,00000101,false,Rx,1,8,00,FF,3C,00,00,E0,00,00,
2031541569,00000102,false,Rx,1,8,02,9A,01,00,00,C8,56,00,
2031551600,00000200,false,Rx,1,8,FF,00,00,00,FA,00,43,B3,
2031590899,00000108,false,Rx,1,8,01,F4,01,0F,B3,01,00,00,
2031591194,00000109,false,Rx,1,8,02,00,00,00,01,20,00,00,
2031591383,00000208,false,Rx,1,8,FF,F4,01,F0,00,00,FA,00,
2031591630,00000209,false,Rx,1,8,02,00,00,00,00,00,00,00,
2031621699,00000100,false,Rx,1,8,00,00,00,00,B3,01,64,00,
2031631676,00000101,false,Rx,1,8,00,FF,3C,00,00,E0,00,00,
2031641722,00000102,false,Rx,1,8,02,9A,01,00,00,C8,56,00,
2031651693,00000200,false,Rx,1,8,FF,00,00,00,FA,00,43,B3,
2031690889,00000108,false,Rx,1,8,01,F4,01,0F,B3,01,00,00,
2031691127,00000109,false,Rx,1,8,02,00,00,00,01,20,00,00,
2031691359,00000208,false,Rx,1,8,FF,F4,01,F0,00,00,FA,00,
2031691618,00000209,false,Rx,1,8,02,00,00,00,00,00,00,00,
2031721844,00000100,false,Rx,1,8,00,00,00,00,B3,01,64,00,
2031731767,00000101,false,Rx,1,8,00,FF,3C,00,00,E0,00,00,
2031741782,00000102,false,Rx,1,8,02,9A,01,00,00,C8,56,00,
2031751790,00000200,false,Rx,1,8,FF,00,00,00,FA,00,43,B3,
2031790877,00000108,false,Rx,1,8,01,F4,01,0F,B3,01,00,00,
2031791114,00000109,false,Rx,1,8,02,00,00,00,01,20,00,00,
2031791360,00000208,false,Rx,1,8,FF,F4,01,F0,00,00,FA,00,
2031791604,00000209,false,Rx,1,8,02,00,00,00,00,00,00,00,
2031821900,00000100,false,Rx,1,8,00,00,00,00,B3,01,64,00,
2031831882,00000101,false,Rx,1,8,00,FF,3C,00,00,E0,00,00,
2031841921,00000102,false,Rx,1,8,02,9A,01,00,00,C8,56,00,
2031852029,00000200,false,Rx,1,8,FF,00,00,00,FA,00,43,B3,
2031890860,00000108,false,Rx,1,8,01,F4,01,0F,B3,01,00,00,
2031891102,00000109,false,Rx,1,8,02,00,00,00,01,20,00,00,
2031891362,00000208,false,Rx,1,8,FF,F4,01,F0,00,00,FA,00,
2031891605,00000209,false,Rx,1,8,02,00,00,00,00,00,00,00,
2031922038,00000100,false,Rx,1,8,00,00,00,00,B3,01,64,00,
2031931977,00000101,false,Rx,1,8,00,FF,3C,00,00,E0,00,00,
2031941998,00000102,false,Rx,1,8,02,9A,01,00,00,C8,56,00,
2031951997,00000200,false,Rx,1,8,FF,00,00,00,FA,00,43,B3,
2031990871,00000108,false,Rx,1,8,01,F4,01,0F,B3,01,00,00,
2031991089,00000109,false,Rx,1,8,02,00,00,00,01,20,00,00,
2031991338,00000208,false,Rx,1,8,FF,F4,01,F0,00,00,FA,00,
2031991590,00000209,false,Rx,1,8,02,00,00,00,00,00,00,00,
2032022105,00000100,false,Rx,1,8,00,00,00,00,B3,01,64,00,
2032032072,00000101,false,Rx,1,8,00,FF,3C,00,00,E0,00,00,
2032042110,00000102,false,Rx,1,8,02,9A,01,00,00,C8,56,00,
2032052098,00000200,false,Rx,1,8,FF,00,00,00,FA,00,43,B3,
2032090879,00000108,false,Rx,1,8,01,F4,01,0F,B3,01,00,00,
2032091127,00000109,false,Rx,1,8,02,00,00,00,01,20,00,00,
2032091350,00000208,false,Rx,1,8,FF,F4,01,F0,00,00,FA,00,
2032091601,00000209,false,Rx,1,8,02,00,00,00,00,00,00,00,
2032122258,00000100,false,Rx,1,8,00,00,00,00,B3,01,64,00,
2032132167,00000101,false,Rx,1,8,00,FF,3C,00,00,E0,00,00,
2032142178,00000102,false,Rx,1,8,02,9A,01,00,00,C8,56,00,
2032152263,00000200,false,Rx,1,8,FF,00,00,00,FA,00,43,B3,
2032190838,00000108,false,Rx,1,8,01,F4,01,0F,B3,01,00,00,
2032191081,00000109,false,Rx,1,8,02,00,00,00,01,20,00,00,
2032191327,00000208,false,Rx,1,8,FF,F4,01,F0,00,00,FA,00,
2032191574,00000209,false,Rx,1,8,02,00,00,00,00,00,00,00,
2032222304,00000100,false,Rx,1,8,00,00,00,00,B3,01,64,00,
2032232279,00000101,false,Rx,1,8,00,FF,3C,00,00,E0,00,00,
2032242311,00000102,false,Rx,1,8,02,9A,01,00,00,C8,56,00,
2032252302,00000200,false,Rx,1,8,FF,00,00,00,FA,00,43,B3,
2032290819,00000108,false,Rx,1,8,01,F4,01,0F,B3,01,00,00,
2032291056,00000109,false,Rx,1,8,02,00,00,00,01,20,00,00,
2032291295,00000208,false,Rx,1,8,FF,F4,01,F0,00,00,FA,00,
2032291550,00000209,false,Rx,1,8,02,00,00,00,00,00,00,00,
2032322451,00000100,false,Rx,1,8,00,00,00,00,B3,01,64,00,
2032332370,00000101,false,Rx,1,8,00,FF,3C,00,00,E0,00,00,
2032342369,00000102,false,Rx,1,8,02,9A,01,00,00,C9,56,00,
2032352541,00000200,false,Rx,1,8,FF,00,00,00,FA,00,43,B3,
2032390897,00000108,false,Rx,1,8,01,F4,01,0F,B3,01,00,00,
2032391136,00000109,false,Rx,1,8,02,00,00,00,01,20,00,00,
2032391389,00000208,false,Rx,1,8,FF,F4,01,F0,00,00,FA,00,
2032391626,00000209,false,Rx,1,8,02,00,00,00,00,00,00,00,
2032422505,00000100,false,Rx,1,8,00,00,00,00,B3,01,64,00,
2032432471,00000101,false,Rx,1,8,00,FF,3C,00,00,E0,00,00,
2032442522,00000102,false,Rx,1,8,02,9A,01,00,00,C9,56,00,
2032452497,00000200,false,Rx,1,8,FF,00,00,00,FA,00,43,B3,
2032491122,00000108,false,Rx,1,8,01,F4,01,0F,B3,01,00,00,
2032491361,00000109,false,Rx,1,8,02,00,00,00,01,20,00,00,
2032491608,00000208,false,Rx,1,8,FF,F4,01,F0,00,00,FA,00,
2032491854,00000209,false,Rx,1,8,02,00,00,00,00,00,00,00,
2032522657,00000100,false,Rx,1,8,00,00,00,00,B3,01,64,00,
2032532569,00000101,false,Rx,1,8,00,FF,3C,00,00,E0,00,00,
2032542579,00000102,false,Rx,1,8,02,9A,01,00,00,C9,56,00,
2032552595,00000200,false,Rx,1,8,FF,00,00,00,FA,00,43,B3,
2032590941,00000108,false,Rx,1,8,01,F4,01,0F,B3,01,00,00,
2032591175,00000109,false,Rx,1,8,02,00,00,00,01,20,00,00,
2032591425,00000208,false,Rx,1,8,FF,F4,01,F0,00,00,FA,00,
2032591689,00000209,false,Rx,1,8,02,00,00,00,00,00,00,00,
2032622706,00000100,false,Rx,1,8,00,00,00,00,B3,01,64,00,
2032632672,00000101,false,Rx,1,8,00,FF,3C,00,00,E0,00,00,
2032642705,00000102,false,Rx,1,8,02,9A,01,00,00,C9,56,00,
2032652699,00000200,false,Rx,1,8,FF,00,00,00,FA,00,43,B3,
2032690932,00000108,false,Rx,1,8,01,F4,01,0F,B3,01,00,00,
2032691151,00000109,false,Rx,1,8,02,00,00,00,01,20,00,00,
2032691394,00000208,false,Rx,1,8,FF,F4,01,F0,00,00,FA,00,
2032691653,00000209,false,Rx,1,8,02,00,00,00,00,00,00,00,
2032722843,00000100,false,Rx,1,8,00,00,00,00,B3,01,64,00,
2032732750,00000101,false,Rx,1,8,00,FF,3C,00,00,E0,00,00,
2032742782,00000102,false,Rx,1,8,02,9A,01,00,00,C9,56,00,
2032752789,00000200,false,Rx,1,8,FF,00,00,00,FA,00,43,B3,
2032791031,00000108,false,Rx,1,8,01,F4,01,0F,B3,01,00,00,
2032791262,00000109,false,Rx,1,8,02,00,00,00,01,20,00,00,
2032791515,00000208,false,Rx,1,8,FF,F4,01,F0,00,00,FA,00,
2032791761,00000209,false,Rx,1,8,02,00,00,00,00,00,00,00,
2032808752,00000630,false,Rx,0,8,40,08,10,04,00,00,00,00,
2032822872,00000100,false,Rx,1,8,00,00,00,00,B3,01,64,00,
2032832841,00000101,false,Rx,1,8,00,FF,3C,00,00,E0,00,00,
2032842886,00000102,false,Rx,1,8,02,9A,01,00,00,C9,56,00,
2032853007,00000200,false,Rx,1,8,FF,00,00,00,FA,00,43,B3,
2032890866,00000108,false,Rx,1,8,01,F4,01,0F,B3,01,00,00,
2032891113,00000109,false,Rx,1,8,02,00,00,00,01,20,00,00,
2032891368,00000208,false,Rx,1,8,FF,F4,01,F0,00,00,FA,00,
2032891599,00000209,false,Rx,1,8,02,00,00,00,00,00,00,00,
2032923008,00000100,false,Rx,1,8,00,00,00,00,B3,01,64,00,
2032932951,00000101,false,Rx,1,8,00,FF,3C,00,00,E0,00,00,
2032942953,00000102,false,Rx,1,8,02,9A,01,00,00,C9,56,00,
2032952975,00000200,false,Rx,1,8,FF,00,00,00,FA,00,43,B3,
2032990892,00000108,false,Rx,1,8,01,F4,01,0F,B3,01,00,00,
2032991117,00000109,false,Rx,1,8,02,00,00,00,01,20,00,00,
2032991373,00000208,false,Rx,1,8,FF,F4,01,F0,00,00,FA,00,
2032991637,00000209,false,Rx,1,8,02,00,00,00,00,00,00,00,
2033023063,00000100,false,Rx,1,8,00,00,00,00,B3,01,64,00,
2033033018,00000101,false,Rx,1,8,00,FF,3C,00,00,E0,00,00,
2033043067,00000102,false,Rx,1,8,02,9A,01,00,00,C9,56,00,
2033053048,00000200,false,Rx,1,8,FF,00,00,00,FA,00,43,B3,
2033090802,00000108,false,Rx,1,8,01,F4,01,0F,B3,01,00,00,
2033091042,00000109,false,Rx,1,8,02,00,00,00,01,20,00,00,
2033091294,00000208,false,Rx,1,8,FF,F4,01,F0,00,00,FA,00,
2033091537,00000209,false,Rx,1,8,02,00,00,00,00,00,00,00,
2033123190,00000100,false,Rx,1,8,00,00,00,00,B3,01,64,00,
2033133112,00000101,false,Rx,1,8,00,FF,3C,00,00,E0,00,00,
2033143138,00000102,false,Rx,1,8,02,9A,01,00,00,C9,56,00,
2033153146,00000200,false,Rx,1,8,FF,00,00,00,FA,00,43,B3,
2033190857,00000108,false,Rx,1,8,01,F4,01,0F,B3,01,00,00,
2033191106,00000109,false,Rx,1,8,02,00,00,00,01,20,00,00,
2033191388,00000208,false,Rx,1,8,FF,F4,01,F0,00,00,FA,00,
2033191606,00000209,false,Rx,1,8,02,00,00,00,00,00,00,00,
2033223241,00000100,false,Rx,1,8,00,00,00,00,B3,01,64,00,
2033233226,00000101,false,Rx,1,8,00,FF,3C,00,00,E0,00,00,
2033243274,00000102,false,Rx,1,8,02,9A,01,00,00,C9,56,00,
2033253243,00000200,false,Rx,1,8,FF,00,00,00,FA,00,43,B3,
2033290756,00000108,false,Rx,1,8,01,F4,01,0F,B3,01,00,00,
2033290995,00000109,false,Rx,1,8,02,00,00,00,01,20,00,00,
2033291249,00000208,false,Rx,1,8,FF,F4,01,F0,00,00,FA,00,
2033291491,00000209,false,Rx,1,8,02,00,00,00,00,00,00,00,
2033323404,00000100,false,Rx,1,8,00,00,00,00,B3,01,64,00,
2033333327,00000101,false,Rx,1,8,00,FF,3C,00,00,E0,00,00,
2033343328,00000102,false,Rx,1,8,02,9A,01,00,00,C9,56,00,
2033353481,00000200,false,Rx,1,8,FF,00,00,00,FA,00,43,B3,
2033390738,00000108,false,Rx,1,8,01,F4,01,0F,B3,01,00,00,
2033390981,00000109,false,Rx,1,8,02,00,00,00,01,20,00,00,
2033391231,00000208,false,Rx,1,8,FF,F4,01,F0,00,00,FA,00,
2033391470,00000209,false,Rx,1,8,02,00,00,00,00,00,00,00,
2033423456,00000100,false,Rx,1,8,00,00,00,00,B3,01,64,00,
2033433412,00000101,false,Rx,1,8,00,FF,3C,00,00,E0,00,00,
2033443480,00000102,false,Rx,1,8,02,9A,01,00,00,C9,56,00,
2033453456,00000200,false,Rx,1,8,FF,00,00,00,FA,00,43,B3,
2033490748,00000108,false,Rx,1,8,01,F4,01,0F,B3,01,00,00,
2033490987,00000109,false,Rx,1,8,02,00,00,00,01,20,00,00,
2033491234,00000208,false,Rx,1,8,FF,F4,01,F0,00,00,FA,00,
2033491480,00000209,false,Rx,1,8,02,00,00,00,00,00,00,00,
2033523585,00000100,false,Rx,1,8,00,00,00,00,B3,01,64,00,
2033533514,00000101,false,Rx,1,8,00,FF,3C,00,00,E0,00,00,
2033543530,00000102,false,Rx,1,8,02,9A,01,00,00,C9,56,00,
2033553563,00000200,false,Rx,1,8,FF,00,00,00,FA,00,43,B3,
2033590742,00000108,false,Rx,1,8,01,F4,01,0F,B3,01,00,00,
2033590967,00000109,false,Rx,1,8,02,00,00,00,01,20,00,00,
2033591213,00000208,false,Rx,1,8,FF,F4,01,F0,00,00,FA,00,
2033591469,00000209,false,Rx,1,8,02,00,00,00,00,00,00,00,
2033623670,00000100,false,Rx,1,8,00,00,00,00,B3,01,64,00,
2033633612,00000101,false,Rx,1,8,00,FF,3C,00,00,E0,00,00,
2033643669,00000102,false,Rx,1,8,02,9A,01,00,00,C9,56,00,
2033653653,00000200,false,Rx,1,8,FF,00,00,00,FA,00,43,B3,
2033690724,00000108,false,Rx,1,8,01,F4,01,0F,B3,01,00,00,
2033690947,00000109,false,Rx,1,8,02,00,00,00,01,20,00,00,
2033691203,00000208,false,Rx,1,8,FF,F4,01,F0,00,00,FA,00,
2033691440,00000209,false,Rx,1,8,02,00,00,00,00,00,00,00,
2033723798,00000100,false,Rx,1,8,00,00,00,00,B3,01,64,00,
2033733714,00000101,false,Rx,1,8,00,FF,3C,00,00,E0,00,00,
2033743721,00000102,false,Rx,1,8,02,9A,01,00,00,C9,56,00,
2033753752,00000200,false,Rx,1,8,FF,00,00,00,FA,00,43,B3,
2033790791,00000108,false,Rx,1,8,01,F4,01,0F,B3,01,00,00,
